T,Vgs,Vds,Id,Cgs,Cgd,Cds
300.0,0.0,0.0,0.0,0.0,0.0,1e-12
300.0,0.0,100.0,0.0,0.0,0.0,8.337470009355456e-14
300.0,0.0,200.0,0.0,0.0,0.0,5.90575374144646e-14
300.0,0.0,300.0,0.0,0.0,0.0,4.824833223044731e-14
300.0,0.0,400.0,0.0,0.0,0.0,4.1796445423175375e-14
300.0,0.0,500.0,0.0,0.0,0.0,3.739040973516833e-14
300.0,0.0,600.0,0.0,0.0,0.0,3.413659534382498e-14
300.0,0.0,700.0,0.0,0.0,0.0,3.16069770620507e-14
300.0,0.0,800.0,0.0,0.0,0.0,2.956746597759446e-14
300.0,2.5,0.0,0.0,2.3e-13,1.15e-13,1e-12
300.0,2.5,100.0,0.05821875000000002,1.15e-13,0.0,8.337470009355456e-14
300.0,2.5,200.0,0.09703125000000004,1.15e-13,0.0,5.90575374144646e-14
300.0,2.5,300.0,0.13584375000000004,1.15e-13,0.0,4.824833223044731e-14
300.0,2.5,400.0,0.17465625000000007,1.15e-13,0.0,4.1796445423175375e-14
300.0,2.5,500.0,0.21346875000000007,1.15e-13,0.0,3.739040973516833e-14
300.0,2.5,600.0,0.25228125000000007,1.15e-13,0.0,3.413659534382498e-14
300.0,2.5,700.0,0.2910937500000001,1.15e-13,0.0,3.16069770620507e-14
300.0,2.5,800.0,0.3299062500000001,1.15e-13,0.0,2.956746597759446e-14
300.0,5.0,0.0,0.0,2.3e-13,1.15e-13,1e-12
300.0,5.0,100.0,0.41400000000000015,1.15e-13,0.0,8.337470009355456e-14
300.0,5.0,200.0,0.6900000000000002,1.15e-13,0.0,5.90575374144646e-14
300.0,5.0,300.0,0.9660000000000003,1.15e-13,0.0,4.824833223044731e-14
300.0,5.0,400.0,1.2420000000000004,1.15e-13,0.0,4.1796445423175375e-14
300.0,5.0,500.0,1.5180000000000005,1.15e-13,0.0,3.739040973516833e-14
300.0,5.0,600.0,1.7940000000000005,1.15e-13,0.0,3.413659534382498e-14
300.0,5.0,700.0,2.0700000000000007,1.15e-13,0.0,3.16069770620507e-14
300.0,5.0,800.0,2.3460000000000005,1.15e-13,0.0,2.956746597759446e-14
300.0,7.5,0.0,0.0,2.3e-13,1.15e-13,1e-12
300.0,7.5,100.0,1.0932187500000003,1.15e-13,0.0,8.337470009355456e-14
300.0,7.5,200.0,1.8220312500000004,1.15e-13,0.0,5.90575374144646e-14
300.0,7.5,300.0,2.5508437500000007,1.15e-13,0.0,4.824833223044731e-14
300.0,7.5,400.0,3.279656250000001,1.15e-13,0.0,4.1796445423175375e-14
300.0,7.5,500.0,4.008468750000001,1.15e-13,0.0,3.739040973516833e-14
300.0,7.5,600.0,4.737281250000001,1.15e-13,0.0,3.413659534382498e-14
300.0,7.5,700.0,5.4660937500000015,1.15e-13,0.0,3.16069770620507e-14
300.0,7.5,800.0,6.194906250000002,1.15e-13,0.0,2.956746597759446e-14
300.0,10.0,0.0,0.0,2.3e-13,1.15e-13,1e-12
300.0,10.0,100.0,2.0958750000000004,1.15e-13,0.0,8.337470009355456e-14
300.0,10.0,200.0,3.493125000000001,1.15e-13,0.0,5.90575374144646e-14
300.0,10.0,300.0,4.8903750000000015,1.15e-13,0.0,4.824833223044731e-14
300.0,10.0,400.0,6.287625000000001,1.15e-13,0.0,4.1796445423175375e-14
300.0,10.0,500.0,7.684875000000002,1.15e-13,0.0,3.739040973516833e-14
300.0,10.0,600.0,9.082125000000001,1.15e-13,0.0,3.413659534382498e-14
300.0,10.0,700.0,10.479375000000003,1.15e-13,0.0,3.16069770620507e-14
300.0,10.0,800.0,11.876625000000002,1.15e-13,0.0,2.956746597759446e-14
300.0,12.5,0.0,0.0,2.3e-13,1.15e-13,1e-12
300.0,12.5,100.0,3.4219687500000013,1.15e-13,0.0,8.337470009355456e-14
300.0,12.5,200.0,5.703281250000002,1.15e-13,0.0,5.90575374144646e-14
300.0,12.5,300.0,7.984593750000003,1.15e-13,0.0,4.824833223044731e-14
300.0,12.5,400.0,10.265906250000004,1.15e-13,0.0,4.1796445423175375e-14
300.0,12.5,500.0,12.547218750000004,1.15e-13,0.0,3.739040973516833e-14
300.0,12.5,600.0,14.828531250000005,1.15e-13,0.0,3.413659534382498e-14
300.0,12.5,700.0,17.109843750000007,1.15e-13,0.0,3.16069770620507e-14
300.0,12.5,800.0,19.391156250000005,1.15e-13,0.0,2.956746597759446e-14
300.0,15.0,0.0,0.0,2.3e-13,1.15e-13,1e-12
300.0,15.0,100.0,5.071500000000002,1.15e-13,0.0,8.337470009355456e-14
300.0,15.0,200.0,8.452500000000002,1.15e-13,0.0,5.90575374144646e-14
300.0,15.0,300.0,11.833500000000004,1.15e-13,0.0,4.824833223044731e-14
300.0,15.0,400.0,15.214500000000005,1.15e-13,0.0,4.1796445423175375e-14
300.0,15.0,500.0,18.595500000000005,1.15e-13,0.0,3.739040973516833e-14
300.0,15.0,600.0,21.97650000000001,1.15e-13,0.0,3.413659534382498e-14
300.0,15.0,700.0,25.35750000000001,1.15e-13,0.0,3.16069770620507e-14
300.0,15.0,800.0,28.73850000000001,1.15e-13,0.0,2.956746597759446e-14
300.0,17.5,0.0,0.0,2.3e-13,1.15e-13,1e-12
300.0,17.5,100.0,7.044468750000002,1.15e-13,0.0,8.337470009355456e-14
300.0,17.5,200.0,11.740781250000003,1.15e-13,0.0,5.90575374144646e-14
300.0,17.5,300.0,16.437093750000003,1.15e-13,0.0,4.824833223044731e-14
300.0,17.5,400.0,21.133406250000007,1.15e-13,0.0,4.1796445423175375e-14
300.0,17.5,500.0,25.829718750000005,1.15e-13,0.0,3.739040973516833e-14
300.0,17.5,600.0,30.52603125000001,1.15e-13,0.0,3.413659534382498e-14
300.0,17.5,700.0,35.22234375000001,1.15e-13,0.0,3.16069770620507e-14
300.0,17.5,800.0,39.91865625000001,1.15e-13,0.0,2.956746597759446e-14
300.0,20.0,0.0,0.0,2.3e-13,1.15e-13,1e-12
300.0,20.0,100.0,9.340875000000002,1.15e-13,0.0,8.337470009355456e-14
300.0,20.0,200.0,15.568125000000004,1.15e-13,0.0,5.90575374144646e-14
300.0,20.0,300.0,21.795375000000007,1.15e-13,0.0,4.824833223044731e-14
300.0,20.0,400.0,28.022625000000005,1.15e-13,0.0,4.1796445423175375e-14
300.0,20.0,500.0,34.24987500000001,1.15e-13,0.0,3.739040973516833e-14
300.0,20.0,600.0,40.47712500000001,1.15e-13,0.0,3.413659534382498e-14
300.0,20.0,700.0,46.70437500000001,1.15e-13,0.0,3.16069770620507e-14
300.0,20.0,800.0,52.93162500000001,1.15e-13,0.0,2.956746597759446e-14
325.0,0.0,0.0,0.0,0.0,0.0,1e-12
325.0,0.0,100.0,0.0,0.0,0.0,8.337470009355456e-14
325.0,0.0,200.0,0.0,0.0,0.0,5.90575374144646e-14
325.0,0.0,300.0,0.0,0.0,0.0,4.824833223044731e-14
325.0,0.0,400.0,0.0,0.0,0.0,4.1796445423175375e-14
325.0,0.0,500.0,0.0,0.0,0.0,3.739040973516833e-14
325.0,0.0,600.0,0.0,0.0,0.0,3.413659534382498e-14
325.0,0.0,700.0,0.0,0.0,0.0,3.16069770620507e-14
325.0,0.0,800.0,0.0,0.0,0.0,2.956746597759446e-14
325.0,2.5,0.0,0.0,2.3e-13,1.15e-13,1e-12
325.0,2.5,100.0,0.055131599859204086,1.15e-13,0.0,8.337470009355456e-14
325.0,2.5,200.0,0.09188599976534013,1.15e-13,0.0,5.90575374144646e-14
325.0,2.5,300.0,0.1286403996714762,1.15e-13,0.0,4.824833223044731e-14
325.0,2.5,400.0,0.16539479957761224,1.15e-13,0.0,4.1796445423175375e-14
325.0,2.5,500.0,0.2021491994837483,1.15e-13,0.0,3.739040973516833e-14
325.0,2.5,600.0,0.23890359938988437,1.15e-13,0.0,3.413659534382498e-14
325.0,2.5,700.0,0.2756579992960204,1.15e-13,0.0,3.16069770620507e-14
325.0,2.5,800.0,0.31241239920215647,1.15e-13,0.0,2.956746597759446e-14
325.0,5.0,0.0,0.0,2.3e-13,1.15e-13,1e-12
325.0,5.0,100.0,0.3763979465933798,1.15e-13,0.0,8.337470009355456e-14
325.0,5.0,200.0,0.6273299109889663,1.15e-13,0.0,5.90575374144646e-14
325.0,5.0,300.0,0.8782618753845528,1.15e-13,0.0,4.824833223044731e-14
325.0,5.0,400.0,1.1291938397801393,1.15e-13,0.0,4.1796445423175375e-14
325.0,5.0,500.0,1.3801258041757258,1.15e-13,0.0,3.739040973516833e-14
325.0,5.0,600.0,1.6310577685713123,1.15e-13,0.0,3.413659534382498e-14
325.0,5.0,700.0,1.8819897329668989,1.15e-13,0.0,3.16069770620507e-14
325.0,5.0,800.0,2.1329216973624856,1.15e-13,0.0,2.956746597759446e-14
325.0,7.5,0.0,0.0,2.3e-13,1.15e-13,1e-12
325.0,7.5,100.0,0.9845092457687836,1.15e-13,0.0,8.337470009355456e-14
325.0,7.5,200.0,1.6408487429479726,1.15e-13,0.0,5.90575374144646e-14
325.0,7.5,300.0,2.2971882401271615,1.15e-13,0.0,4.824833223044731e-14
325.0,7.5,400.0,2.953527737306351,1.15e-13,0.0,4.1796445423175375e-14
325.0,7.5,500.0,3.60986723448554,1.15e-13,0.0,3.739040973516833e-14
325.0,7.5,600.0,4.266206731664729,1.15e-13,0.0,3.413659534382498e-14
325.0,7.5,700.0,4.922546228843918,1.15e-13,0.0,3.16069770620507e-14
325.0,7.5,800.0,5.578885726023107,1.15e-13,0.0,2.956746597759446e-14
325.0,10.0,0.0,0.0,2.3e-13,1.15e-13,1e-12
325.0,10.0,100.0,1.8794654973854161,1.15e-13,0.0,8.337470009355456e-14
325.0,10.0,200.0,3.13244249564236,1.15e-13,0.0,5.90575374144646e-14
325.0,10.0,300.0,4.385419493899304,1.15e-13,0.0,4.824833223044731e-14
325.0,10.0,400.0,5.638396492156248,1.15e-13,0.0,4.1796445423175375e-14
325.0,10.0,500.0,6.8913734904131925,1.15e-13,0.0,3.739040973516833e-14
325.0,10.0,600.0,8.144350488670137,1.15e-13,0.0,3.413659534382498e-14
325.0,10.0,700.0,9.39732748692708,1.15e-13,0.0,3.16069770620507e-14
325.0,10.0,800.0,10.650304485184025,1.15e-13,0.0,2.956746597759446e-14
325.0,12.5,0.0,0.0,2.3e-13,1.15e-13,1e-12
325.0,12.5,100.0,3.0612667014432766,1.15e-13,0.0,8.337470009355456e-14
325.0,12.5,200.0,5.102111169072128,1.15e-13,0.0,5.90575374144646e-14
325.0,12.5,300.0,7.142955636700979,1.15e-13,0.0,4.824833223044731e-14
325.0,12.5,400.0,9.18380010432983,1.15e-13,0.0,4.1796445423175375e-14
325.0,12.5,500.0,11.224644571958681,1.15e-13,0.0,3.739040973516833e-14
325.0,12.5,600.0,13.265489039587532,1.15e-13,0.0,3.413659534382498e-14
325.0,12.5,700.0,15.306333507216383,1.15e-13,0.0,3.16069770620507e-14
325.0,12.5,800.0,17.347177974845234,1.15e-13,0.0,2.956746597759446e-14
325.0,15.0,0.0,0.0,2.3e-13,1.15e-13,1e-12
325.0,15.0,100.0,4.5299128579423655,1.15e-13,0.0,8.337470009355456e-14
325.0,15.0,200.0,7.549854763237276,1.15e-13,0.0,5.90575374144646e-14
325.0,15.0,300.0,10.569796668532186,1.15e-13,0.0,4.824833223044731e-14
325.0,15.0,400.0,13.589738573827097,1.15e-13,0.0,4.1796445423175375e-14
325.0,15.0,500.0,16.609680479122005,1.15e-13,0.0,3.739040973516833e-14
325.0,15.0,600.0,19.62962238441692,1.15e-13,0.0,3.413659534382498e-14
325.0,15.0,700.0,22.649564289711826,1.15e-13,0.0,3.16069770620507e-14
325.0,15.0,800.0,25.66950619500674,1.15e-13,0.0,2.956746597759446e-14
325.0,17.5,0.0,0.0,2.3e-13,1.15e-13,1e-12
325.0,17.5,100.0,6.285403966882683,1.15e-13,0.0,8.337470009355456e-14
325.0,17.5,200.0,10.475673278137805,1.15e-13,0.0,5.90575374144646e-14
325.0,17.5,300.0,14.665942589392927,1.15e-13,0.0,4.824833223044731e-14
325.0,17.5,400.0,18.85621190064805,1.15e-13,0.0,4.1796445423175375e-14
325.0,17.5,500.0,23.04648121190317,1.15e-13,0.0,3.739040973516833e-14
325.0,17.5,600.0,27.236750523158292,1.15e-13,0.0,3.413659534382498e-14
325.0,17.5,700.0,31.427019834413414,1.15e-13,0.0,3.16069770620507e-14
325.0,17.5,800.0,35.617289145668536,1.15e-13,0.0,2.956746597759446e-14
325.0,20.0,0.0,0.0,2.3e-13,1.15e-13,1e-12
325.0,20.0,100.0,8.327740028264229,1.15e-13,0.0,8.337470009355456e-14
325.0,20.0,200.0,13.879566713773714,1.15e-13,0.0,5.90575374144646e-14
325.0,20.0,300.0,19.431393399283202,1.15e-13,0.0,4.824833223044731e-14
325.0,20.0,400.0,24.983220084792684,1.15e-13,0.0,4.1796445423175375e-14
325.0,20.0,500.0,30.535046770302174,1.15e-13,0.0,3.739040973516833e-14
325.0,20.0,600.0,36.086873455811656,1.15e-13,0.0,3.413659534382498e-14
325.0,20.0,700.0,41.638700141321145,1.15e-13,0.0,3.16069770620507e-14
325.0,20.0,800.0,47.19052682683063,1.15e-13,0.0,2.956746597759446e-14
350.0,0.0,0.0,0.0,0.0,0.0,1e-12
350.0,0.0,100.0,0.0,0.0,0.0,8.337470009355456e-14
350.0,0.0,200.0,0.0,0.0,0.0,5.90575374144646e-14
350.0,0.0,300.0,0.0,0.0,0.0,4.824833223044731e-14
350.0,0.0,400.0,0.0,0.0,0.0,4.1796445423175375e-14
350.0,0.0,500.0,0.0,0.0,0.0,3.739040973516833e-14
350.0,0.0,600.0,0.0,0.0,0.0,3.413659534382498e-14
350.0,0.0,700.0,0.0,0.0,0.0,3.16069770620507e-14
350.0,0.0,800.0,0.0,0.0,0.0,2.956746597759446e-14
350.0,2.5,0.0,0.0,2.3e-13,1.15e-13,1e-12
350.0,2.5,100.0,0.05256542006480043,1.15e-13,0.0,8.337470009355456e-14
350.0,2.5,200.0,0.08760903344133404,1.15e-13,0.0,5.90575374144646e-14
350.0,2.5,300.0,0.12265264681786767,1.15e-13,0.0,4.824833223044731e-14
350.0,2.5,400.0,0.15769626019440128,1.15e-13,0.0,4.1796445423175375e-14
350.0,2.5,500.0,0.1927398735709349,1.15e-13,0.0,3.739040973516833e-14
350.0,2.5,600.0,0.22778348694746853,1.15e-13,0.0,3.413659534382498e-14
350.0,2.5,700.0,0.26282710032400214,1.15e-13,0.0,3.16069770620507e-14
350.0,2.5,800.0,0.29787071370053575,1.15e-13,0.0,2.956746597759446e-14
350.0,5.0,0.0,0.0,2.3e-13,1.15e-13,1e-12
350.0,5.0,100.0,0.3451659028473808,1.15e-13,0.0,8.337470009355456e-14
350.0,5.0,200.0,0.5752765047456347,1.15e-13,0.0,5.90575374144646e-14
350.0,5.0,300.0,0.8053871066438886,1.15e-13,0.0,4.824833223044731e-14
350.0,5.0,400.0,1.0354977085421424,1.15e-13,0.0,4.1796445423175375e-14
350.0,5.0,500.0,1.2656083104403963,1.15e-13,0.0,3.739040973516833e-14
350.0,5.0,600.0,1.4957189123386503,1.15e-13,0.0,3.413659534382498e-14
350.0,5.0,700.0,1.7258295142369042,1.15e-13,0.0,3.16069770620507e-14
350.0,5.0,800.0,1.955940116135158,1.15e-13,0.0,2.956746597759446e-14
350.0,7.5,0.0,0.0,2.3e-13,1.15e-13,1e-12
350.0,7.5,100.0,0.8944334757901196,1.15e-13,0.0,8.337470009355456e-14
350.0,7.5,200.0,1.4907224596501991,1.15e-13,0.0,5.90575374144646e-14
350.0,7.5,300.0,2.0870114435102787,1.15e-13,0.0,4.824833223044731e-14
350.0,7.5,400.0,2.6833004273703587,1.15e-13,0.0,4.1796445423175375e-14
350.0,7.5,500.0,3.2795894112304382,1.15e-13,0.0,3.739040973516833e-14
350.0,7.5,600.0,3.875878395090518,1.15e-13,0.0,3.413659534382498e-14
350.0,7.5,700.0,4.472167378950598,1.15e-13,0.0,3.16069770620507e-14
350.0,7.5,800.0,5.068456362810677,1.15e-13,0.0,2.956746597759446e-14
350.0,10.0,0.0,0.0,2.3e-13,1.15e-13,1e-12
350.0,10.0,100.0,1.7003681388930165,1.15e-13,0.0,8.337470009355456e-14
350.0,10.0,200.0,2.8339468981550278,1.15e-13,0.0,5.90575374144646e-14
350.0,10.0,300.0,3.9675256574170383,1.15e-13,0.0,4.824833223044731e-14
350.0,10.0,400.0,5.10110441667905,1.15e-13,0.0,4.1796445423175375e-14
350.0,10.0,500.0,6.23468317594106,1.15e-13,0.0,3.739040973516833e-14
350.0,10.0,600.0,7.368261935203072,1.15e-13,0.0,3.413659534382498e-14
350.0,10.0,700.0,8.501840694465082,1.15e-13,0.0,3.16069770620507e-14
350.0,10.0,800.0,9.635419453727094,1.15e-13,0.0,2.956746597759446e-14
350.0,12.5,0.0,0.0,2.3e-13,1.15e-13,1e-12
350.0,12.5,100.0,2.7629698921560717,1.15e-13,0.0,8.337470009355456e-14
350.0,12.5,200.0,4.60494982026012,1.15e-13,0.0,5.90575374144646e-14
350.0,12.5,300.0,6.446929748364168,1.15e-13,0.0,4.824833223044731e-14
350.0,12.5,400.0,8.288909676468215,1.15e-13,0.0,4.1796445423175375e-14
350.0,12.5,500.0,10.130889604572264,1.15e-13,0.0,3.739040973516833e-14
350.0,12.5,600.0,11.972869532676311,1.15e-13,0.0,3.413659534382498e-14
350.0,12.5,700.0,13.814849460780358,1.15e-13,0.0,3.16069770620507e-14
350.0,12.5,800.0,15.656829388884407,1.15e-13,0.0,2.956746597759446e-14
350.0,15.0,0.0,0.0,2.3e-13,1.15e-13,1e-12
350.0,15.0,100.0,4.082238735579286,1.15e-13,0.0,8.337470009355456e-14
350.0,15.0,200.0,6.803731225965476,1.15e-13,0.0,5.90575374144646e-14
350.0,15.0,300.0,9.525223716351666,1.15e-13,0.0,4.824833223044731e-14
350.0,15.0,400.0,12.246716206737856,1.15e-13,0.0,4.1796445423175375e-14
350.0,15.0,500.0,14.968208697124046,1.15e-13,0.0,3.739040973516833e-14
350.0,15.0,600.0,17.689701187510238,1.15e-13,0.0,3.413659534382498e-14
350.0,15.0,700.0,20.411193677896428,1.15e-13,0.0,3.16069770620507e-14
350.0,15.0,800.0,23.132686168282618,1.15e-13,0.0,2.956746597759446e-14
350.0,17.5,0.0,0.0,2.3e-13,1.15e-13,1e-12
350.0,17.5,100.0,5.658174669162658,1.15e-13,0.0,8.337470009355456e-14
350.0,17.5,200.0,9.430291115271098,1.15e-13,0.0,5.90575374144646e-14
350.0,17.5,300.0,13.202407561379538,1.15e-13,0.0,4.824833223044731e-14
350.0,17.5,400.0,16.974524007487975,1.15e-13,0.0,4.1796445423175375e-14
350.0,17.5,500.0,20.746640453596417,1.15e-13,0.0,3.739040973516833e-14
350.0,17.5,600.0,24.518756899704854,1.15e-13,0.0,3.413659534382498e-14
350.0,17.5,700.0,28.290873345813292,1.15e-13,0.0,3.16069770620507e-14
350.0,17.5,800.0,32.06298979192173,1.15e-13,0.0,2.956746597759446e-14
350.0,20.0,0.0,0.0,2.3e-13,1.15e-13,1e-12
350.0,20.0,100.0,7.490777692906189,1.15e-13,0.0,8.337470009355456e-14
350.0,20.0,200.0,12.484629488176981,1.15e-13,0.0,5.90575374144646e-14
350.0,20.0,300.0,17.478481283447774,1.15e-13,0.0,4.824833223044731e-14
350.0,20.0,400.0,22.472333078718567,1.15e-13,0.0,4.1796445423175375e-14
350.0,20.0,500.0,27.46618487398936,1.15e-13,0.0,3.739040973516833e-14
350.0,20.0,600.0,32.46003666926015,1.15e-13,0.0,3.413659534382498e-14
350.0,20.0,700.0,37.45388846453095,1.15e-13,0.0,3.16069770620507e-14
350.0,20.0,800.0,42.44774025980173,1.15e-13,0.0,2.956746597759446e-14
375.0,0.0,0.0,0.0,0.0,0.0,1e-12
375.0,0.0,100.0,0.0,0.0,0.0,8.337470009355456e-14
375.0,0.0,200.0,0.0,0.0,0.0,5.90575374144646e-14
375.0,0.0,300.0,0.0,0.0,0.0,4.824833223044731e-14
375.0,0.0,400.0,0.0,0.0,0.0,4.1796445423175375e-14
375.0,0.0,500.0,0.0,0.0,0.0,3.739040973516833e-14
375.0,0.0,600.0,0.0,0.0,0.0,3.413659534382498e-14
375.0,0.0,700.0,0.0,0.0,0.0,3.16069770620507e-14
375.0,0.0,800.0,0.0,0.0,0.0,2.956746597759446e-14
375.0,2.5,0.0,0.0,2.3e-13,1.15e-13,1e-12
375.0,2.5,100.0,0.05040611516919353,1.15e-13,0.0,8.337470009355456e-14
375.0,2.5,200.0,0.08401019194865589,1.15e-13,0.0,5.90575374144646e-14
375.0,2.5,300.0,0.11761426872811823,1.15e-13,0.0,4.824833223044731e-14
375.0,2.5,400.0,0.1512183455075806,1.15e-13,0.0,4.1796445423175375e-14
375.0,2.5,500.0,0.18482242228704293,1.15e-13,0.0,3.739040973516833e-14
375.0,2.5,600.0,0.2184264990665053,1.15e-13,0.0,3.413659534382498e-14
375.0,2.5,700.0,0.25203057584596766,1.15e-13,0.0,3.16069770620507e-14
375.0,2.5,800.0,0.28563465262543,1.15e-13,0.0,2.956746597759446e-14
375.0,5.0,0.0,0.0,2.3e-13,1.15e-13,1e-12
375.0,5.0,100.0,0.3188684365478185,1.15e-13,0.0,8.337470009355456e-14
375.0,5.0,200.0,0.5314473942463641,1.15e-13,0.0,5.90575374144646e-14
375.0,5.0,300.0,0.7440263519449097,1.15e-13,0.0,4.824833223044731e-14
375.0,5.0,400.0,0.9566053096434555,1.15e-13,0.0,4.1796445423175375e-14
375.0,5.0,500.0,1.169184267342001,1.15e-13,0.0,3.739040973516833e-14
375.0,5.0,600.0,1.3817632250405467,1.15e-13,0.0,3.413659534382498e-14
375.0,5.0,700.0,1.5943421827390925,1.15e-13,0.0,3.16069770620507e-14
375.0,5.0,800.0,1.806921140437638,1.15e-13,0.0,2.956746597759446e-14
375.0,7.5,0.0,0.0,2.3e-13,1.15e-13,1e-12
375.0,7.5,100.0,0.8187637935976717,1.15e-13,0.0,8.337470009355456e-14
375.0,7.5,200.0,1.364606322662786,1.15e-13,0.0,5.90575374144646e-14
375.0,7.5,300.0,1.9104488517279006,1.15e-13,0.0,4.824833223044731e-14
375.0,7.5,400.0,2.456291380793015,1.15e-13,0.0,4.1796445423175375e-14
375.0,7.5,500.0,3.0021339098581294,1.15e-13,0.0,3.739040973516833e-14
375.0,7.5,600.0,3.5479764389232438,1.15e-13,0.0,3.413659534382498e-14
375.0,7.5,700.0,4.0938189679883585,1.15e-13,0.0,3.16069770620507e-14
375.0,7.5,800.0,4.639661497053472,1.15e-13,0.0,2.956746597759446e-14
375.0,10.0,0.0,0.0,2.3e-13,1.15e-13,1e-12
375.0,10.0,100.0,1.5500921863187536,1.15e-13,0.0,8.337470009355456e-14
375.0,10.0,200.0,2.5834869771979223,1.15e-13,0.0,5.90575374144646e-14
375.0,10.0,300.0,3.6168817680770915,1.15e-13,0.0,4.824833223044731e-14
375.0,10.0,400.0,4.650276558956261,1.15e-13,0.0,4.1796445423175375e-14
375.0,10.0,500.0,5.683671349835429,1.15e-13,0.0,3.739040973516833e-14
375.0,10.0,600.0,6.717066140714598,1.15e-13,0.0,3.413659534382498e-14
375.0,10.0,700.0,7.750460931593767,1.15e-13,0.0,3.16069770620507e-14
375.0,10.0,800.0,8.783855722472936,1.15e-13,0.0,2.956746597759446e-14
375.0,12.5,0.0,0.0,2.3e-13,1.15e-13,1e-12
375.0,12.5,100.0,2.5128536147110627,1.15e-13,0.0,8.337470009355456e-14
375.0,12.5,200.0,4.188089357851771,1.15e-13,0.0,5.90575374144646e-14
375.0,12.5,300.0,5.86332510099248,1.15e-13,0.0,4.824833223044731e-14
375.0,12.5,400.0,7.538560844133189,1.15e-13,0.0,4.1796445423175375e-14
375.0,12.5,500.0,9.213796587273897,1.15e-13,0.0,3.739040973516833e-14
375.0,12.5,600.0,10.889032330414606,1.15e-13,0.0,3.413659534382498e-14
375.0,12.5,700.0,12.564268073555315,1.15e-13,0.0,3.16069770620507e-14
375.0,12.5,800.0,14.239503816696022,1.15e-13,0.0,2.956746597759446e-14
375.0,15.0,0.0,0.0,2.3e-13,1.15e-13,1e-12
375.0,15.0,100.0,3.707048078774601,1.15e-13,0.0,8.337470009355456e-14
375.0,15.0,200.0,6.1784134646243345,1.15e-13,0.0,5.90575374144646e-14
375.0,15.0,300.0,8.64977885047407,1.15e-13,0.0,4.824833223044731e-14
375.0,15.0,400.0,11.121144236323802,1.15e-13,0.0,4.1796445423175375e-14
375.0,15.0,500.0,13.592509622173537,1.15e-13,0.0,3.739040973516833e-14
375.0,15.0,600.0,16.06387500802327,1.15e-13,0.0,3.413659534382498e-14
375.0,15.0,700.0,18.535240393873003,1.15e-13,0.0,3.16069770620507e-14
375.0,15.0,800.0,21.00660577972274,1.15e-13,0.0,2.956746597759446e-14
375.0,17.5,0.0,0.0,2.3e-13,1.15e-13,1e-12
375.0,17.5,100.0,5.132675578509367,1.15e-13,0.0,8.337470009355456e-14
