T,Vgs,Vds,Id,Cgs,Cgd,Cds
300.0,0.0,0.0,0.0,0.0,0.0,1e-12
300.0,0.0,100.0,0.0,0.0,0.0,8.337470009355458e-14
300.0,0.0,200.0,0.0,0.0,0.0,5.90575374144646e-14
300.0,0.0,300.0,0.0,0.0,0.0,4.824833223044731e-14
300.0,0.0,400.0,0.0,0.0,0.0,4.1796445423175375e-14
300.0,0.0,500.0,0.0,0.0,0.0,3.7390409735168326e-14
300.0,0.0,600.0,0.0,0.0,0.0,3.413659534382499e-14
300.0,0.0,700.0,0.0,0.0,0.0,3.16069770620507e-14
300.0,0.0,800.0,0.0,0.0,0.0,2.956746597759446e-14
300.0,2.5,0.0,0.0,3e-12,,1e-12
300.0,2.5,100.0,5.0913576446280966e-08,3e-12,1.9790753919253755e-08,8.337470009355458e-14
300.0,2.5,200.0,8.485596074380162e-08,3e-12,1.7406108938616183e-08,5.90575374144646e-14
300.0,2.5,300.0,1.1879834504132225e-07,3e-12,1.6114748719047134e-08,4.824833223044731e-14
300.0,2.5,400.0,1.527407293388429e-07,3e-12,1.5242754067879047e-08,4.1796445423175375e-14
300.0,2.5,500.0,1.8668311363636354e-07,3e-12,1.459113611810064e-08,3.7390409735168326e-14
300.0,2.5,600.0,2.206254979338842e-07,3e-12,1.4074555317664698e-08,3.413659534382499e-14
300.0,2.5,700.0,2.545678822314048e-07,3e-12,1.364877960482529e-08,3.16069770620507e-14
300.0,2.5,800.0,2.885102665289255e-07,3e-12,1.3288020033388e-08,2.956746597759446e-14
300.0,5.0,0.0,0.0,3e-12,,1e-12
300.0,5.0,100.0,3.6205209917355354e-07,3e-12,1.9882322447223896e-08,8.337470009355458e-14
300.0,5.0,200.0,6.034201652892558e-07,3e-12,1.744736057704185e-08,5.90575374144646e-14
300.0,5.0,300.0,8.447882314049582e-07,3e-12,1.6140657871096146e-08,4.824833223044731e-14
300.0,5.0,400.0,1.0861562975206606e-06,3e-12,1.5261372934709463e-08,4.1796445423175375e-14
300.0,5.0,500.0,1.327524363636363e-06,3e-12,1.4605538624778596e-08,3.7390409735168326e-14
300.0,5.0,600.0,1.5688924297520652e-06,3e-12,1.4086227562939843e-08,3.413659534382499e-14
300.0,5.0,700.0,1.8102604958677675e-06,3e-12,1.3658548424285556e-08,3.16069770620507e-14
300.0,5.0,800.0,2.0516285619834698e-06,3e-12,1.3296390808583793e-08,2.956746597759446e-14
300.0,7.5,0.0,0.0,3e-12,,1e-12
300.0,7.5,100.0,9.560438243801647e-07,3e-12,1.997661338435306e-08,8.337470009355458e-14
300.0,7.5,200.0,1.5934063739669413e-06,3e-12,1.748921172104747e-08,5.90575374144646e-14
300.0,7.5,300.0,2.2307689235537176e-06,3e-12,1.616681704147038e-08,4.824833223044731e-14
300.0,7.5,400.0,2.8681314731404942e-06,3e-12,1.5280126486326513e-08,4.1796445423175375e-14
300.0,7.5,500.0,3.505494022727271e-06,3e-12,1.4620024524419703e-08,3.7390409735168326e-14
300.0,7.5,600.0,4.142856572314047e-06,3e-12,1.4097956178835165e-08,3.413659534382499e-14
300.0,7.5,700.0,4.7802191219008236e-06,3e-12,1.3668357722738486e-08,3.16069770620507e-14
300.0,7.5,800.0,5.4175816714876e-06,3e-12,1.330479196488287e-08,2.956746597759446e-14
300.0,10.0,0.0,0.0,3e-12,,1e-12
300.0,10.0,100.0,1.8328887520661144e-06,3e-12,2.0073783579970085e-08,8.337470009355458e-14
300.0,10.0,200.0,3.0548145867768577e-06,3e-12,1.753167890878484e-08,5.90575374144646e-14
300.0,10.0,300.0,4.2767404214876005e-06,3e-12,1.6193230774017333e-08,4.824833223044731e-14
300.0,10.0,400.0,5.498666256198344e-06,3e-12,1.5299016549542643e-08,4.1796445423175375e-14
300.0,10.0,500.0,6.720592090909087e-06,3e-12,1.4634594719735467e-08,3.7390409735168326e-14
300.0,10.0,600.0,7.94251792561983e-06,3e-12,1.4109741673208643e-08,3.413659534382499e-14
300.0,10.0,700.0,9.164443760330573e-06,3e-12,1.3678207812562988e-08,3.16069770620507e-14
300.0,10.0,800.0,1.0386369595041316e-05,3e-12,1.3313223707363228e-08,2.956746597759446e-14
300.0,12.5,0.0,0.0,3e-12,,1e-12
300.0,12.5,100.0,2.992586882231403e-06,3e-12,2.0174003585778635e-08,8.337470009355458e-14
300.0,12.5,200.0,4.987644803719005e-06,3e-12,1.7574779358134933e-08,5.90575374144646e-14
300.0,12.5,300.0,6.982702725206607e-06,3e-12,1.621990373488307e-08,4.824833223044731e-14
300.0,12.5,400.0,8.97776064669421e-06,3e-12,1.5318044987749475e-08,4.1796445423175375e-14
300.0,12.5,500.0,1.097281856818181e-05,3e-12,1.4649250127833805e-08,3.7390409735168326e-14
300.0,12.5,600.0,1.2967876489669414e-05,3e-12,1.4121584560649522e-08,3.413659534382499e-14
300.0,12.5,700.0,1.4962934411157014e-05,3e-12,1.3688099009680652e-08,3.16069770620507e-14
300.0,12.5,800.0,1.6957992332644618e-05,3e-12,1.3321686243135511e-08,2.956746597759446e-14
300.0,15.0,0.0,0.0,3e-12,,1e-12
300.0,15.0,100.0,4.435138214876031e-06,3e-12,2.0277459286020994e-08,8.337470009355458e-14
300.0,15.0,200.0,7.391897024793384e-06,3e-12,1.761853100411231e-08,5.90575374144646e-14
300.0,15.0,300.0,1.0348655834710739e-05,3e-12,1.6246840716895297e-08,4.824833223044731e-14
300.0,15.0,400.0,1.3305414644628092e-05,3e-12,1.5337213701890353e-08,4.1796445423175375e-14
300.0,15.0,500.0,1.6262173454545446e-05,3e-12,1.4663991680523365e-08,3.7390409735168326e-14
300.0,15.0,600.0,1.92189322644628e-05,3e-12,1.4133485362596444e-08,3.413659534382499e-14
300.0,15.0,700.0,2.2175691074380152e-05,3e-12,1.3698031633608916e-08,3.16069770620507e-14
300.0,15.0,800.0,2.513244988429751e-05,3e-12,1.333017978136969e-08,2.956746597759446e-14
300.0,17.5,0.0,0.0,3e-12,,1e-12
300.0,17.5,100.0,6.160542749999997e-06,3e-12,2.0384353776335606e-08,8.337470009355458e-14
300.0,17.5,200.0,1.0267571249999994e-05,3e-12,1.7662952538863996e-08,5.90575374144646e-14
300.0,17.5,300.0,1.4374599749999992e-05,3e-12,1.6274046644143422e-08,4.824833223044731e-14
300.0,17.5,400.0,1.848162824999999e-05,3e-12,1.535652463146529e-08,4.1796445423175375e-14
300.0,17.5,500.0,2.2588656749999986e-05,3e-12,1.4678820324625907e-08,3.7390409735168326e-14
300.0,17.5,600.0,2.6695685249999987e-05,3e-12,1.4145444607458161e-08,3.413659534382499e-14
300.0,17.5,700.0,3.080271374999998e-05,3e-12,1.3708006007515162e-08,3.16069770620507e-14
300.0,17.5,800.0,3.490974224999998e-05,3e-12,1.3338704533322059e-08,2.956746597759446e-14
300.0,20.0,0.0,0.0,3e-12,,1e-12
300.0,20.0,100.0,8.1688004876033e-06,3e-12,2.0494909538133653e-08,8.337470009355458e-14
300.0,20.0,200.0,1.3614667479338835e-05,3e-12,1.770806345448126e-08,5.90575374144646e-14
300.0,20.0,300.0,1.906053447107437e-05,3e-12,1.6301526576766214e-08,4.824833223044731e-14
300.0,20.0,400.0,2.45064014628099e-05,3e-12,1.5375979755569487e-08,4.1796445423175375e-14
300.0,20.0,500.0,2.9952268454545435e-05,3e-12,1.4693737022296972e-08,3.7390409735168326e-14
300.0,20.0,600.0,3.539813544628097e-05,3e-12,1.415746283073687e-08,3.413659534382499e-14
300.0,20.0,700.0,4.08440024380165e-05,3e-12,1.3718022458271908e-08,3.16069770620507e-14
300.0,20.0,800.0,4.628986942975204e-05,3e-12,1.3347260712362806e-08,2.956746597759446e-14
325.0,0.0,0.0,0.0,0.0,0.0,1e-12
325.0,0.0,100.0,0.0,0.0,0.0,8.337470009355458e-14
325.0,0.0,200.0,0.0,0.0,0.0,5.90575374144646e-14
325.0,0.0,300.0,0.0,0.0,0.0,4.824833223044731e-14
325.0,0.0,400.0,0.0,0.0,0.0,4.1796445423175375e-14
325.0,0.0,500.0,0.0,0.0,0.0,3.7390409735168326e-14
325.0,0.0,600.0,0.0,0.0,0.0,3.413659534382499e-14
325.0,0.0,700.0,0.0,0.0,0.0,3.16069770620507e-14
325.0,0.0,800.0,0.0,0.0,0.0,2.956746597759446e-14
325.0,2.5,0.0,0.0,3e-12,,1e-12
325.0,2.5,100.0,5.43643855165289e-08,3e-12,1.9790753919253755e-08,8.337470009355458e-14
325.0,2.5,200.0,9.060730919421484e-08,3e-12,1.7406108938616183e-08,5.90575374144646e-14
325.0,2.5,300.0,1.2685023287190077e-07,3e-12,1.6114748719047134e-08,4.824833223044731e-14
325.0,2.5,400.0,1.6309315654958671e-07,3e-12,1.5242754067879047e-08,4.1796445423175375e-14
325.0,2.5,500.0,1.9933608022727266e-07,3e-12,1.459113611810064e-08,3.7390409735168326e-14
325.0,2.5,600.0,2.3557900390495857e-07,3e-12,1.4074555317664698e-08,3.413659534382499e-14
325.0,2.5,700.0,2.7182192758264454e-07,3e-12,1.364877960482529e-08,3.16069770620507e-14
325.0,2.5,800.0,3.0806485126033043e-07,3e-12,1.3288020033388e-08,2.956746597759446e-14
325.0,5.0,0.0,0.0,3e-12,,1e-12
325.0,5.0,100.0,3.711599722933882e-07,3e-12,1.9882322447223896e-08,8.337470009355458e-14
325.0,5.0,200.0,6.185999538223137e-07,3e-12,1.744736057704185e-08,5.90575374144646e-14
325.0,5.0,300.0,8.660399353512391e-07,3e-12,1.6140657871096146e-08,4.824833223044731e-14
325.0,5.0,400.0,1.1134799168801646e-06,3e-12,1.5261372934709463e-08,4.1796445423175375e-14
325.0,5.0,500.0,1.3609198984090902e-06,3e-12,1.4605538624778596e-08,3.7390409735168326e-14
325.0,5.0,600.0,1.6083598799380155e-06,3e-12,1.4086227562939843e-08,3.413659534382499e-14
325.0,5.0,700.0,1.855799861466941e-06,3e-12,1.3658548424285556e-08,3.16069770620507e-14
325.0,5.0,800.0,2.1032398429958663e-06,3e-12,1.3296390808583793e-08,2.956746597759446e-14
325.0,7.5,0.0,0.0,3e-12,,1e-12
325.0,7.5,100.0,9.70808761549586e-07,3e-12,1.997661338435306e-08,8.337470009355458e-14
325.0,7.5,200.0,1.6180146025826435e-06,3e-12,1.748921172104747e-08,5.90575374144646e-14
325.0,7.5,300.0,2.265220443615701e-06,3e-12,1.616681704147038e-08,4.824833223044731e-14
325.0,7.5,400.0,2.912426284648758e-06,3e-12,1.5280126486326513e-08,4.1796445423175375e-14
325.0,7.5,500.0,3.559632125681816e-06,3e-12,1.4620024524419703e-08,3.7390409735168326e-14
325.0,7.5,600.0,4.206837966714873e-06,3e-12,1.4097956178835165e-08,3.413659534382499e-14
325.0,7.5,700.0,4.854043807747931e-06,3e-12,1.3668357722738486e-08,3.16069770620507e-14
325.0,7.5,800.0,5.501249648780988e-06,3e-12,1.330479196488287e-08,2.956746597759446e-14
325.0,10.0,0.0,0.0,3e-12,,1e-12
325.0,10.0,100.0,1.8533107532851234e-06,3e-12,2.0073783579970085e-08,8.337470009355458e-14
325.0,10.0,200.0,3.088851255475206e-06,3e-12,1.753167890878484e-08,5.90575374144646e-14
325.0,10.0,300.0,4.324391757665288e-06,3e-12,1.6193230774017333e-08,4.824833223044731e-14
325.0,10.0,400.0,5.5599322598553704e-06,3e-12,1.5299016549542643e-08,4.1796445423175375e-14
325.0,10.0,500.0,6.795472762045452e-06,3e-12,1.4634594719735467e-08,3.7390409735168326e-14
325.0,10.0,600.0,8.031013264235535e-06,3e-12,1.4109741673208643e-08,3.413659534382499e-14
325.0,10.0,700.0,9.266553766425618e-06,3e-12,1.3678207812562988e-08,3.16069770620507e-14
325.0,10.0,800.0,1.0502094268615699e-05,3e-12,1.3313223707363228e-08,2.956746597759446e-14
325.0,12.5,0.0,0.0,3e-12,,1e-12
325.0,12.5,100.0,3.0186659474999983e-06,3e-12,2.0174003585778635e-08,8.337470009355458e-14
325.0,12.5,200.0,5.031109912499997e-06,3e-12,1.7574779358134933e-08,5.90575374144646e-14
325.0,12.5,300.0,7.043553877499996e-06,3e-12,1.621990373488307e-08,4.824833223044731e-14
325.0,12.5,400.0,9.055997842499994e-06,3e-12,1.5318044987749475e-08,4.1796445423175375e-14
325.0,12.5,500.0,1.1068441807499995e-05,3e-12,1.4649250127833805e-08,3.7390409735168326e-14
325.0,12.5,600.0,1.3080885772499992e-05,3e-12,1.4121584560649522e-08,3.413659534382499e-14
325.0,12.5,700.0,1.5093329737499992e-05,3e-12,1.3688099009680652e-08,3.16069770620507e-14
325.0,12.5,800.0,1.710577370249999e-05,3e-12,1.3321686243135511e-08,2.956746597759446e-14
325.0,15.0,0.0,0.0,3e-12,,1e-12
325.0,15.0,100.0,4.466874344194213e-06,3e-12,2.0277459286020994e-08,8.337470009355458e-14
325.0,15.0,200.0,7.444790573657022e-06,3e-12,1.761853100411231e-08,5.90575374144646e-14
325.0,15.0,300.0,1.0422706803119831e-05,3e-12,1.6246840716895297e-08,4.824833223044731e-14
325.0,15.0,400.0,1.340062303258264e-05,3e-12,1.5337213701890353e-08,4.1796445423175375e-14
325.0,15.0,500.0,1.637853926204545e-05,3e-12,1.4663991680523365e-08,3.7390409735168326e-14
325.0,15.0,600.0,1.9356455491508256e-05,3e-12,1.4133485362596444e-08,3.413659534382499e-14
325.0,15.0,700.0,2.2334371720971068e-05,3e-12,1.3698031633608916e-08,3.16069770620507e-14
325.0,15.0,800.0,2.5312287950433874e-05,3e-12,1.333017978136969e-08,2.956746597759446e-14
325.0,17.5,0.0,0.0,3e-12,,1e-12
325.0,17.5,100.0,6.197935943367766e-06,3e-12,2.0384353776335606e-08,8.337470009355458e-14
325.0,17.5,200.0,1.0329893238946275e-05,3e-12,1.7662952538863996e-08,5.90575374144646e-14
325.0,17.5,300.0,1.4461850534524786e-05,3e-12,1.6274046644143422e-08,4.824833223044731e-14
325.0,17.5,400.0,1.8593807830103297e-05,3e-12,1.535652463146529e-08,4.1796445423175375e-14
325.0,17.5,500.0,2.2725765125681806e-05,3e-12,1.4678820324625907e-08,3.7390409735168326e-14
325.0,17.5,600.0,2.6857722421260316e-05,3e-12,1.4145444607458161e-08,3.413659534382499e-14
325.0,17.5,700.0,3.098967971683883e-05,3e-12,1.3708006007515162e-08,3.16069770620507e-14
325.0,17.5,800.0,3.5121637012417334e-05,3e-12,1.3338704533322059e-08,2.956746597759446e-14
325.0,20.0,0.0,0.0,3e-12,,1e-12
325.0,20.0,100.0,8.211850745020656e-06,3e-12,2.0494909538133653e-08,8.337470009355458e-14
325.0,20.0,200.0,1.3686417908367761e-05,3e-12,1.770806345448126e-08,5.90575374144646e-14
325.0,20.0,300.0,1.9160985071714865e-05,3e-12,1.6301526576766214e-08,4.824833223044731e-14
325.0,20.0,400.0,2.463555223506197e-05,3e-12,1.5375979755569487e-08,4.1796445423175375e-14
325.0,20.0,500.0,3.0110119398409076e-05,3e-12,1.4693737022296972e-08,3.7390409735168326e-14
325.0,20.0,600.0,3.558468656175618e-05,3e-12,1.415746283073687e-08,3.413659534382499e-14
325.0,20.0,700.0,4.1059253725103286e-05,3e-12,1.3718022458271908e-08,3.16069770620507e-14
325.0,20.0,800.0,4.6533820888450385e-05,3e-12,1.3347260712362806e-08,2.956746597759446e-14
350.0,0.0,0.0,0.0,0.0,0.0,1e-12
350.0,0.0,100.0,0.0,0.0,0.0,8.337470009355458e-14
350.0,0.0,200.0,0.0,0.0,0.0,5.90575374144646e-14
350.0,0.0,300.0,0.0,0.0,0.0,4.824833223044731e-14
350.0,0.0,400.0,0.0,0.0,0.0,4.1796445423175375e-14
350.0,0.0,500.0,0.0,0.0,0.0,3.7390409735168326e-14
350.0,0.0,600.0,0.0,0.0,0.0,3.413659534382499e-14
350.0,0.0,700.0,0.0,0.0,0.0,3.16069770620507e-14
350.0,0.0,800.0,0.0,0.0,0.0,2.956746597759446e-14
350.0,2.5,0.0,0.0,3e-12,,1e-12
350.0,2.5,100.0,5.792833586776857e-08,3e-12,1.9790753919253755e-08,8.337470009355458e-14
350.0,2.5,200.0,9.654722644628096e-08,3e-12,1.7406108938616183e-08,5.90575374144646e-14
350.0,2.5,300.0,1.3516611702479332e-07,3e-12,1.6114748719047134e-08,4.824833223044731e-14
350.0,2.5,400.0,1.7378500760330572e-07,3e-12,1.5242754067879047e-08,4.1796445423175375e-14
350.0,2.5,500.0,2.1240389818181809e-07,3e-12,1.459113611810064e-08,3.7390409735168326e-14
350.0,2.5,600.0,2.510227887603305e-07,3e-12,1.4074555317664698e-08,3.413659534382499e-14
350.0,2.5,700.0,2.8964167933884287e-07,3e-12,1.364877960482529e-08,3.16069770620507e-14
350.0,2.5,800.0,3.282605699173552e-07,3e-12,1.3288020033388e-08,2.956746597759446e-14
350.0,5.0,0.0,0.0,3e-12,,1e-12
350.0,5.0,100.0,3.8038098669421465e-07,3e-12,1.9882322447223896e-08,8.337470009355458e-14
350.0,5.0,200.0,6.339683111570244e-07,3e-12,1.744736057704185e-08,5.90575374144646e-14
350.0,5.0,300.0,8.875556356198342e-07,3e-12,1.6140657871096146e-08,4.824833223044731e-14
350.0,5.0,400.0,1.141142960082644e-06,3e-12,1.5261372934709463e-08,4.1796445423175375e-14
350.0,5.0,500.0,1.3947302845454538e-06,3e-12,1.4605538624778596e-08,3.7390409735168326e-14
350.0,5.0,600.0,1.6483176090082634e-06,3e-12,1.4086227562939843e-08,3.413659534382499e-14
350.0,5.0,700.0,1.9019049334710733e-06,3e-12,1.3658548424285556e-08,3.16069770620507e-14
350.0,5.0,800.0,2.155492257933883e-06,3e-12,1.3296390808583793e-08,2.956746597759446e-14
350.0,7.5,0.0,0.0,3e-12,,1e-12
350.0,7.5,100.0,9.856868399999994e-07,3e-12,1.997661338435306e-08,8.337470009355458e-14
350.0,7.5,200.0,1.6428113999999988e-06,3e-12,1.748921172104747e-08,5.90575374144646e-14
350.0,7.5,300.0,2.2999359599999985e-06,3e-12,1.616681704147038e-08,4.824833223044731e-14
350.0,7.5,400.0,2.957060519999998e-06,3e-12,1.5280126486326513e-08,4.1796445423175375e-14
350.0,7.5,500.0,3.6141850799999976e-06,3e-12,1.4620024524419703e-08,3.7390409735168326e-14
350.0,7.5,600.0,4.271309639999997e-06,3e-12,1.4097956178835165e-08,3.413659534382499e-14
350.0,7.5,700.0,4.928434199999996e-06,3e-12,1.3668357722738486e-08,3.16069770620507e-14
350.0,7.5,800.0,5.5855587599999965e-06,3e-12,1.330479196488287e-08,2.956746597759446e-14
350.0,10.0,0.0,0.0,3e-12,,1e-12
350.0,10.0,100.0,1.8738458957851228e-06,3e-12,2.0073783579970085e-08,8.337470009355458e-14
350.0,10.0,200.0,3.1230764929752043e-06,3e-12,1.753167890878484e-08,5.90575374144646e-14
350.0,10.0,300.0,4.372307090165286e-06,3e-12,1.6193230774017333e-08,4.824833223044731e-14
350.0,10.0,400.0,5.621537687355368e-06,3e-12,1.5299016549542643e-08,4.1796445423175375e-14
350.0,10.0,500.0,6.8707682845454495e-06,3e-12,1.4634594719735467e-08,3.7390409735168326e-14
350.0,10.0,600.0,8.119998881735531e-06,3e-12,1.4109741673208643e-08,3.413659534382499e-14
350.0,10.0,700.0,9.369229478925613e-06,3e-12,1.3678207812562988e-08,3.16069770620507e-14
350.0,10.0,800.0,1.0618460076115696e-05,3e-12,1.3313223707363228e-08,2.956746597759446e-14
350.0,12.5,0.0,0.0,3e-12,,1e-12
350.0,12.5,100.0,3.044858154049585e-06,3e-12,2.0174003585778635e-08,8.337470009355458e-14
350.0,12.5,200.0,5.074763590082642e-06,3e-12,1.7574779358134933e-08,5.90575374144646e-14
350.0,12.5,300.0,7.104669026115699e-06,3e-12,1.621990373488307e-08,4.824833223044731e-14
350.0,12.5,400.0,9.134574462148756e-06,3e-12,1.5318044987749475e-08,4.1796445423175375e-14
350.0,12.5,500.0,1.1164479898181812e-05,3e-12,1.4649250127833805e-08,3.7390409735168326e-14
350.0,12.5,600.0,1.319438533421487e-05,3e-12,1.4121584560649522e-08,3.413659534382499e-14
350.0,12.5,700.0,1.5224290770247925e-05,3e-12,1.3688099009680652e-08,3.16069770620507e-14
350.0,12.5,800.0,1.7254196206280984e-05,3e-12,1.3321686243135511e-08,2.956746597759446e-14
350.0,15.0,0.0,0.0,3e-12,,1e-12
350.0,15.0,100.0,4.498723614793385e-06,3e-12,2.0277459286020994e-08,8.337470009355458e-14
350.0,15.0,200.0,7.4978726913223096e-06,3e-12,1.761853100411231e-08,5.90575374144646e-14
350.0,15.0,300.0,1.0497021767851234e-05,3e-12,1.6246840716895297e-08,4.824833223044731e-14
350.0,15.0,400.0,1.3496170844380156e-05,3e-12,1.5337213701890353e-08,4.1796445423175375e-14
350.0,15.0,500.0,1.649531992090908e-05,3e-12,1.4663991680523365e-08,3.7390409735168326e-14
350.0,15.0,600.0,1.9494468997438003e-05,3e-12,1.4133485362596444e-08,3.413659534382499e-14
350.0,15.0,700.0,2.249361807396693e-05,3e-12,1.3698031633608916e-08,3.16069770620507e-14
350.0,15.0,800.0,2.549276715049585e-05,3e-12,1.333017978136969e-08,2.956746597759446e-14
350.0,17.5,0.0,0.0,3e-12,,1e-12
350.0,17.5,100.0,6.235442278016526e-06,3e-12,2.0384353776335606e-08,8.337470009355458e-14
350.0,17.5,200.0,1.0392403796694212e-05,3e-12,1.7662952538863996e-08,5.90575374144646e-14
350.0,17.5,300.0,1.4549365315371895e-05,3e-12,1.6274046644143422e-08,4.824833223044731e-14
350.0,17.5,400.0,1.870632683404958e-05,3e-12,1.535652463146529e-08,4.1796445423175375e-14
350.0,17.5,500.0,2.2863288352727266e-05,3e-12,1.4678820324625907e-08,3.7390409735168326e-14
350.0,17.5,600.0,2.7020249871404948e-05,3e-12,1.4145444607458161e-08,3.413659534382499e-14
350.0,17.5,700.0,3.1177211390082633e-05,3e-12,1.3708006007515162e-08,3.16069770620507e-14
350.0,17.5,800.0,3.533417290876032e-05,3e-12,1.3338704533322059e-08,2.956746597759446e-14
350.0,20.0,0.0,0.0,3e-12,,1e-12
350.0,20.0,100.0,8.255014143719004e-06,3e-12,2.0494909538133653e-08,8.337470009355458e-14
350.0,20.0,200.0,1.375835690619834e-05,3e-12,1.770806345448126e-08,5.90575374144646e-14
350.0,20.0,300.0,1.9261699668677678e-05,3e-12,1.6301526576766214e-08,4.824833223044731e-14
350.0,20.0,400.0,2.476504243115701e-05,3e-12,1.5375979755569487e-08,4.1796445423175375e-14
350.0,20.0,500.0,3.026838519363635e-05,3e-12,1.4693737022296972e-08,3.7390409735168326e-14
350.0,20.0,600.0,3.577172795611568e-05,3e-12,1.415746283073687e-08,3.413659534382499e-14
350.0,20.0,700.0,4.127507071859502e-05,3e-12,1.3718022458271908e-08,3.16069770620507e-14
350.0,20.0,800.0,4.6778413481074356e-05,3e-12,1.3347260712362806e-08,2.956746597759446e-14
375.0,0.0,0.0,0.0,0.0,0.0,1e-12
375.0,0.0,100.0,0.0,0.0,0.0,8.337470009355458e-14
375.0,0.0,200.0,0.0,0.0,0.0,5.90575374144646e-14
375.0,0.0,300.0,0.0,0.0,0.0,4.824833223044731e-14
375.0,0.0,400.0,0.0,0.0,0.0,4.1796445423175375e-14
375.0,0.0,500.0,0.0,0.0,0.0,3.7390409735168326e-14
375.0,0.0,600.0,0.0,0.0,0.0,3.413659534382499e-14
375.0,0.0,700.0,0.0,0.0,0.0,3.16069770620507e-14
375.0,0.0,800.0,0.0,0.0,0.0,2.956746597759446e-14
375.0,2.5,0.0,0.0,3e-12,,1e-12
375.0,2.5,100.0,6.160542749999996e-08,3e-12,1.9790753919253755e-08,8.337470009355458e-14
375.0,2.5,200.0,1.0267571249999992e-07,3e-12,1.7406108938616183e-08,5.90575374144646e-14
